Sample in Buffer,Sample in Window,TRIGGER,w_hilbert_i[15:0],w_adc_data[15:0],w_hilbert_q[15:0],w_hilbert_valid
Radix - UNSIGNED,UNSIGNED,UNSIGNED,SIGNED,SIGNED,SIGNED,HEX
0,0,0,90,0,-126,1
1,1,0,90,-309,47,0
2,2,0,-1,-588,47,1
3,3,0,-1,-809,47,0
4,4,0,-91,-951,47,1
5,5,0,-91,-1000,-126,0
6,6,0,146,-951,-126,1
7,7,0,146,-809,154,0
8,8,0,-147,-588,154,1
9,9,0,-147,-309,-126,0
10,10,0,90,0,-126,1
11,11,0,90,309,47,0
12,12,0,-1,588,47,1
13,13,0,-1,809,47,0
14,14,0,-91,951,47,1
15,15,0,-91,1000,-126,0
16,16,0,146,951,-126,1
17,17,0,146,809,154,0
18,18,0,-147,588,154,1
19,19,0,-147,309,-126,0
20,20,0,90,0,-126,1
21,21,0,90,-309,47,0
22,22,0,-1,-588,47,1
23,23,0,-1,-809,47,0
24,24,0,-91,-951,47,1
25,25,0,-91,-1000,-126,0
26,26,0,146,-951,-126,1
27,27,0,146,-809,154,0
28,28,0,-147,-588,154,1
29,29,0,-147,-309,-126,0
30,30,0,90,0,-126,1
31,31,0,90,309,47,0
32,32,0,-1,588,47,1
33,33,0,-1,809,47,0
34,34,0,-91,951,47,1
35,35,0,-91,1000,-126,0
36,36,0,146,951,-126,1
37,37,0,146,809,154,0
38,38,0,-147,588,154,1
39,39,0,-147,309,-126,0
40,40,0,90,0,-126,1
41,41,0,90,-309,47,0
42,42,0,-1,-588,47,1
43,43,0,-1,-809,47,0
44,44,0,-91,-951,47,1
45,45,0,-91,-1000,-126,0
46,46,0,146,-951,-126,1
47,47,0,146,-809,154,0
48,48,0,-147,-588,154,1
49,49,0,-147,-309,-126,0
50,50,0,90,0,-126,1
51,51,0,90,309,47,0
52,52,0,-1,588,47,1
53,53,0,-1,809,47,0
54,54,0,-91,951,47,1
55,55,0,-91,1000,-126,0
56,56,0,146,951,-126,1
57,57,0,146,809,154,0
58,58,0,-147,588,154,1
59,59,0,-147,309,-126,0
60,60,0,90,0,-126,1
61,61,0,90,-309,47,0
62,62,0,-1,-588,47,1
63,63,0,-1,-809,47,0
64,64,0,-91,-951,47,1
65,65,0,-91,-1000,-126,0
66,66,0,146,-951,-126,1
67,67,0,146,-809,154,0
68,68,0,-147,-588,154,1
69,69,0,-147,-309,-126,0
70,70,0,90,0,-126,1
71,71,0,90,309,47,0
72,72,0,-1,588,47,1
73,73,0,-1,809,47,0
74,74,0,-91,951,47,1
75,75,0,-91,1000,-126,0
76,76,0,146,951,-126,1
77,77,0,146,809,154,0
78,78,0,-147,588,154,1
79,79,0,-147,309,-126,0
80,80,0,90,0,-126,1
81,81,0,90,-309,47,0
82,82,0,-1,-588,47,1
83,83,0,-1,-809,47,0
84,84,0,-91,-951,47,1
85,85,0,-91,-1000,-126,0
86,86,0,146,-951,-126,1
87,87,0,146,-809,154,0
88,88,0,-147,-588,154,1
89,89,0,-147,-309,-126,0
90,90,0,90,0,-126,1
91,91,0,90,309,47,0
92,92,0,-1,588,47,1
93,93,0,-1,809,47,0
94,94,0,-91,951,47,1
95,95,0,-91,1000,-126,0
96,96,0,146,951,-126,1
97,97,0,146,809,154,0
98,98,0,-147,588,154,1
99,99,0,-147,309,-126,0
100,100,0,90,0,-126,1
101,101,0,90,-309,47,0
102,102,0,-1,-588,47,1
103,103,0,-1,-809,47,0
104,104,0,-91,-951,47,1
105,105,0,-91,-1000,-126,0
106,106,0,146,-951,-126,1
107,107,0,146,-809,154,0
108,108,0,-147,-588,154,1
109,109,0,-147,-309,-126,0
110,110,0,90,0,-126,1
111,111,0,90,309,47,0
112,112,0,-1,588,47,1
113,113,0,-1,809,47,0
114,114,0,-91,951,47,1
115,115,0,-91,1000,-126,0
116,116,0,146,951,-126,1
117,117,0,146,809,154,0
118,118,0,-147,588,154,1
119,119,0,-147,309,-126,0
120,120,0,90,0,-126,1
121,121,0,90,-309,47,0
122,122,0,-1,-588,47,1
123,123,0,-1,-809,47,0
124,124,0,-91,-951,47,1
125,125,0,-91,-1000,-126,0
126,126,0,146,-951,-126,1
127,127,0,146,-809,154,0
128,128,0,-147,-588,154,1
129,129,0,-147,-309,-126,0
130,130,0,90,0,-126,1
131,131,0,90,309,47,0
132,132,0,-1,588,47,1
133,133,0,-1,809,47,0
134,134,0,-91,951,47,1
135,135,0,-91,1000,-126,0
136,136,0,146,951,-126,1
137,137,0,146,809,154,0
138,138,0,-147,588,154,1
139,139,0,-147,309,-126,0
140,140,0,90,0,-126,1
141,141,0,90,-309,47,0
142,142,0,-1,-588,47,1
143,143,0,-1,-809,47,0
144,144,0,-91,-951,47,1
145,145,0,-91,-1000,-126,0
146,146,0,146,-951,-126,1
147,147,0,146,-809,154,0
148,148,0,-147,-588,154,1
149,149,0,-147,-309,-126,0
150,150,0,90,0,-126,1
151,151,0,90,309,47,0
152,152,0,-1,588,47,1
153,153,0,-1,809,47,0
154,154,0,-91,951,47,1
155,155,0,-91,1000,-126,0
156,156,0,146,951,-126,1
157,157,0,146,809,154,0
158,158,0,-147,588,154,1
159,159,0,-147,309,-126,0
160,160,0,90,0,-126,1
161,161,0,90,-309,47,0
162,162,0,-1,-588,47,1
163,163,0,-1,-809,47,0
164,164,0,-91,-951,47,1
165,165,0,-91,-1000,-126,0
166,166,0,146,-951,-126,1
167,167,0,146,-809,154,0
168,168,0,-147,-588,154,1
169,169,0,-147,-309,-126,0
170,170,0,90,0,-126,1
171,171,0,90,309,47,0
172,172,0,-1,588,47,1
173,173,0,-1,809,47,0
174,174,0,-91,951,47,1
175,175,0,-91,1000,-126,0
176,176,0,146,951,-126,1
177,177,0,146,809,154,0
178,178,0,-147,588,154,1
179,179,0,-147,309,-126,0
180,180,0,90,0,-126,1
181,181,0,90,-309,47,0
182,182,0,-1,-588,47,1
183,183,0,-1,-809,47,0
184,184,0,-91,-951,47,1
185,185,0,-91,-1000,-126,0
186,186,0,146,-951,-126,1
187,187,0,146,-809,154,0
188,188,0,-147,-588,154,1
189,189,0,-147,-309,-126,0
190,190,0,90,0,-126,1
191,191,0,90,309,47,0
192,192,0,-1,588,47,1
193,193,0,-1,809,47,0
194,194,0,-91,951,47,1
195,195,0,-91,1000,-126,0
196,196,0,146,951,-126,1
197,197,0,146,809,154,0
198,198,0,-147,588,154,1
199,199,0,-147,309,-126,0
200,200,0,90,0,-126,1
201,201,0,90,-309,47,0
202,202,0,-1,-588,47,1
203,203,0,-1,-809,47,0
204,204,0,-91,-951,47,1
205,205,0,-91,-1000,-126,0
206,206,0,146,-951,-126,1
207,207,0,146,-809,154,0
208,208,0,-147,-588,154,1
209,209,0,-147,-309,-126,0
210,210,0,90,0,-126,1
211,211,0,90,309,47,0
212,212,0,-1,588,47,1
213,213,0,-1,809,47,0
214,214,0,-91,951,47,1
215,215,0,-91,1000,-126,0
216,216,0,146,951,-126,1
217,217,0,146,809,154,0
218,218,0,-147,588,154,1
219,219,0,-147,309,-126,0
220,220,0,90,0,-126,1
221,221,0,90,-309,47,0
222,222,0,-1,-588,47,1
223,223,0,-1,-809,47,0
224,224,0,-91,-951,47,1
225,225,0,-91,-1000,-126,0
226,226,0,146,-951,-126,1
227,227,0,146,-809,154,0
228,228,0,-147,-588,154,1
229,229,0,-147,-309,-126,0
230,230,0,90,0,-126,1
231,231,0,90,309,47,0
232,232,0,-1,588,47,1
233,233,0,-1,809,47,0
234,234,0,-91,0,47,1
235,235,0,-91,309,-126,0
236,236,0,146,588,-126,1
237,237,0,146,809,154,0
238,238,0,-147,951,154,1
239,239,0,-147,1000,-126,0
240,240,0,-147,951,-126,1
241,241,0,-147,809,-126,0
242,242,0,-147,588,-126,1
243,243,0,-147,309,-126,0
244,244,0,90,0,-126,1
245,245,0,90,-309,47,0
246,246,0,-1,-588,47,1
247,247,0,-1,-809,47,0
248,248,0,-91,-951,47,1
249,249,0,-91,-1000,-126,0
250,250,0,146,-951,-126,1
251,251,0,146,-809,154,0
252,252,0,-147,-588,154,1
253,253,0,-147,-309,-126,0
254,254,0,90,0,-126,1
255,255,0,90,309,47,0
256,256,0,-1,588,47,1
257,257,0,-1,809,47,0
258,258,0,-91,951,47,1
259,259,0,-91,1000,-126,0
260,260,0,146,951,-126,1
261,261,0,146,809,154,0
262,262,0,-147,588,154,1
263,263,0,-147,309,-126,0
264,264,0,90,0,-126,1
265,265,0,90,-309,47,0
266,266,0,-1,-588,47,1
267,267,0,-1,-809,47,0
268,268,0,-91,-951,47,1
269,269,0,-91,-1000,-126,0
270,270,0,146,-951,-126,1
271,271,0,146,-809,154,0
272,272,0,-147,-588,154,1
273,273,0,-147,-309,-126,0
274,274,0,90,0,-126,1
275,275,0,90,309,47,0
276,276,0,-1,588,47,1
277,277,0,-1,809,47,0
278,278,0,-91,951,47,1
279,279,0,-91,1000,-126,0
280,280,0,146,951,-126,1
281,281,0,146,809,154,0
282,282,0,-147,588,154,1
283,283,0,-147,309,-126,0
284,284,0,90,0,-126,1
285,285,0,90,-309,47,0
286,286,0,-1,-588,47,1
287,287,0,-1,-809,47,0
288,288,0,-91,-951,47,1
289,289,0,-91,-1000,-126,0
290,290,0,146,-951,-126,1
291,291,0,146,-809,154,0
292,292,0,-147,-588,154,1
293,293,0,-147,-309,-126,0
294,294,0,90,0,-126,1
295,295,0,90,309,47,0
296,296,0,-1,588,47,1
297,297,0,-1,809,47,0
298,298,0,-91,951,47,1
299,299,0,-91,1000,-126,0
300,300,0,146,951,-126,1
301,301,0,146,809,154,0
302,302,0,-147,588,154,1
303,303,0,-147,309,-126,0
304,304,0,90,0,-126,1
305,305,0,90,-309,47,0
306,306,0,-1,-588,47,1
307,307,0,-1,-809,47,0
308,308,0,-91,-951,47,1
309,309,0,-91,-1000,-126,0
310,310,0,146,-951,-126,1
311,311,0,146,-809,154,0
312,312,0,-147,-588,154,1
313,313,0,-147,-309,-126,0
314,314,0,90,0,-126,1
315,315,0,90,309,47,0
316,316,0,-1,588,47,1
317,317,0,-1,809,47,0
318,318,0,-91,951,47,1
319,319,0,-91,1000,-126,0
320,320,0,146,951,-126,1
321,321,0,146,809,154,0
322,322,0,-147,588,154,1
323,323,0,-147,309,-126,0
324,324,0,90,0,-126,1
325,325,0,90,-309,47,0
326,326,0,-1,-588,47,1
327,327,0,-1,-809,47,0
328,328,0,-91,-951,47,1
329,329,0,-91,-1000,-126,0
330,330,0,146,-951,-126,1
331,331,0,146,-809,154,0
332,332,0,-147,-588,154,1
333,333,0,-147,-309,-126,0
334,334,0,90,0,-126,1
335,335,0,90,309,47,0
336,336,0,-1,588,47,1
337,337,0,-1,809,47,0
338,338,0,-91,951,47,1
339,339,0,-91,1000,-126,0
340,340,0,146,951,-126,1
341,341,0,146,809,154,0
342,342,0,-147,588,154,1
343,343,0,-147,309,-126,0
344,344,0,90,0,-126,1
345,345,0,90,-309,47,0
346,346,0,-1,-588,47,1
347,347,0,-1,-809,47,0
348,348,0,-91,-951,47,1
349,349,0,-91,-1000,-126,0
350,350,0,146,-951,-126,1
351,351,0,146,-809,154,0
352,352,0,-147,-588,154,1
353,353,0,-147,-309,-126,0
354,354,0,90,0,-126,1
355,355,0,90,309,47,0
356,356,0,-1,588,47,1
357,357,0,-1,809,47,0
358,358,0,-91,951,47,1
359,359,0,-91,1000,-126,0
360,360,0,146,951,-126,1
361,361,0,146,809,154,0
362,362,0,-147,588,154,1
363,363,0,-147,309,-126,0
364,364,0,90,0,-126,1
365,365,0,90,-309,47,0
366,366,0,-1,-588,47,1
367,367,0,-1,-809,47,0
368,368,0,-91,-951,47,1
369,369,0,-91,-1000,-126,0
370,370,0,146,-951,-126,1
371,371,0,146,-809,154,0
372,372,0,-147,-588,154,1
373,373,0,-147,-309,-126,0
374,374,0,90,0,-126,1
375,375,0,90,309,47,0
376,376,0,-1,588,47,1
377,377,0,-1,809,47,0
378,378,0,-91,951,47,1
379,379,0,-91,1000,-126,0
380,380,0,146,951,-126,1
381,381,0,146,809,154,0
382,382,0,-147,588,154,1
383,383,0,-147,309,-126,0
384,384,0,90,0,-126,1
385,385,0,90,-309,47,0
386,386,0,-1,-588,47,1
387,387,0,-1,-809,47,0
388,388,0,-91,-951,47,1
389,389,0,-91,-1000,-126,0
390,390,0,146,-951,-126,1
391,391,0,146,-809,154,0
392,392,0,-147,-588,154,1
393,393,0,-147,-309,-126,0
394,394,0,90,0,-126,1
395,395,0,90,309,47,0
396,396,0,-1,588,47,1
397,397,0,-1,809,47,0
398,398,0,-91,951,47,1
399,399,0,-91,1000,-126,0
400,400,0,146,951,-126,1
401,401,0,146,809,154,0
402,402,0,-147,588,154,1
403,403,0,-147,309,-126,0
404,404,0,90,0,-126,1
405,405,0,90,-309,47,0
406,406,0,-1,-588,47,1
407,407,0,-1,-809,47,0
408,408,0,-91,-951,47,1
409,409,0,-91,-1000,-126,0
410,410,0,146,-951,-126,1
411,411,0,146,-809,154,0
412,412,0,-147,-588,154,1
413,413,0,-147,-309,-126,0
414,414,0,90,0,-126,1
415,415,0,90,309,47,0
416,416,0,-1,588,47,1
417,417,0,-1,809,47,0
418,418,0,-91,951,47,1
419,419,0,-91,1000,-126,0
420,420,0,146,951,-126,1
421,421,0,146,809,154,0
422,422,0,-147,588,154,1
423,423,0,-147,309,-126,0
424,424,0,90,0,-126,1
425,425,0,90,-309,47,0
426,426,0,-1,-588,47,1
427,427,0,-1,-809,47,0
428,428,0,-91,-951,47,1
429,429,0,-91,-1000,-126,0
430,430,0,146,-951,-126,1
431,431,0,146,-809,154,0
432,432,0,-147,-588,154,1
433,433,0,-147,-309,-126,0
434,434,0,90,0,-126,1
435,435,0,90,309,47,0
436,436,0,-1,588,47,1
437,437,0,-1,809,47,0
438,438,0,-91,951,47,1
439,439,0,-91,1000,-126,0
440,440,0,146,951,-126,1
441,441,0,146,809,154,0
442,442,0,-147,588,154,1
443,443,0,-147,309,-126,0
444,444,0,90,0,-126,1
445,445,0,90,-309,47,0
446,446,0,-1,-588,47,1
447,447,0,-1,-809,47,0
448,448,0,-91,-951,47,1
449,449,0,-91,-1000,-126,0
450,450,0,146,-951,-126,1
451,451,0,146,-809,154,0
452,452,0,-147,-588,154,1
453,453,0,-147,-309,-126,0
454,454,0,90,0,-126,1
455,455,0,90,309,47,0
456,456,0,-1,588,47,1
457,457,0,-1,809,47,0
458,458,0,-91,951,47,1
459,459,0,-91,1000,-126,0
460,460,0,146,951,-126,1
461,461,0,146,809,154,0
462,462,0,-147,588,154,1
463,463,0,-147,309,-126,0
464,464,0,90,0,-126,1
465,465,0,90,-309,47,0
466,466,0,-1,-588,47,1
467,467,0,-1,-809,47,0
468,468,0,-91,-951,47,1
469,469,0,-91,-1000,-126,0
470,470,0,146,-951,-126,1
471,471,0,146,-809,154,0
472,472,0,-147,-588,154,1
473,473,0,-147,-309,-126,0
474,474,0,90,0,-126,1
475,475,0,90,309,47,0
476,476,0,-1,588,47,1
477,477,0,-1,809,47,0
478,478,0,-91,951,47,1
479,479,0,-91,1000,-126,0
480,480,0,146,951,-126,1
481,481,0,146,809,154,0
482,482,0,-147,588,154,1
483,483,0,-147,309,-126,0
484,484,0,90,0,-126,1
485,485,0,90,-309,47,0
486,486,0,-1,-588,47,1
487,487,0,-1,-809,47,0
488,488,0,-91,-951,47,1
489,489,0,-91,-1000,-126,0
490,490,0,146,-951,-126,1
491,491,0,146,-809,154,0
492,492,0,-147,-588,154,1
493,493,0,-147,-309,-126,0
494,494,0,90,0,-126,1
495,495,0,90,309,47,0
496,496,0,-1,588,47,1
497,497,0,-1,809,47,0
498,498,0,-91,951,47,1
499,499,0,-91,1000,-126,0
500,500,0,146,951,-126,1
501,501,0,146,809,154,0
502,502,0,-147,588,154,1
503,503,0,-147,309,-126,0
504,504,0,90,0,-126,1
505,505,0,90,-309,47,0
506,506,0,-1,-588,47,1
507,507,0,-1,-809,47,0
508,508,0,-91,-951,47,1
509,509,0,-91,-1000,-126,0
510,510,0,146,-951,-126,1
511,511,0,146,-809,154,0
512,512,0,-147,-588,154,1
513,513,0,-147,-309,-126,0
514,514,0,90,0,-126,1
515,515,0,90,309,47,0
516,516,0,-1,588,47,1
517,517,0,-1,809,47,0
518,518,0,-91,951,47,1
519,519,0,-91,1000,-126,0
520,520,0,146,951,-126,1
521,521,0,146,809,154,0
522,522,0,-147,588,154,1
523,523,0,-147,309,-126,0
524,524,0,90,0,-126,1
525,525,0,90,-309,47,0
526,526,0,-1,-588,47,1
527,527,0,-1,-809,47,0
528,528,0,-91,-951,47,1
529,529,0,-91,-1000,-126,0
530,530,0,146,-951,-126,1
531,531,0,146,-809,154,0
532,532,0,-147,-588,154,1
533,533,0,-147,-309,-126,0
534,534,0,90,0,-126,1
535,535,0,90,309,47,0
536,536,0,-1,588,47,1
537,537,0,-1,809,47,0
538,538,0,-91,951,47,1
539,539,0,-91,1000,-126,0
540,540,0,146,951,-126,1
541,541,0,146,809,154,0
542,542,0,-147,588,154,1
543,543,0,-147,309,-126,0
544,544,0,90,0,-126,1
545,545,0,90,-309,47,0
546,546,0,-1,-588,47,1
547,547,0,-1,-809,47,0
548,548,0,-91,-951,47,1
549,549,0,-91,-1000,-126,0
550,550,0,146,-951,-126,1
551,551,0,146,-809,154,0
552,552,0,-147,-588,154,1
553,553,0,-147,-309,-126,0
554,554,0,90,0,-126,1
555,555,0,90,309,47,0
556,556,0,-1,588,47,1
557,557,0,-1,809,47,0
558,558,0,-91,951,47,1
559,559,0,-91,1000,-126,0
560,560,0,146,951,-126,1
561,561,0,146,809,154,0
562,562,0,-147,588,154,1
563,563,0,-147,309,-126,0
564,564,0,90,0,-126,1
565,565,0,90,-309,47,0
566,566,0,-1,-588,47,1
567,567,0,-1,-809,47,0
568,568,0,-91,-951,47,1
569,569,0,-91,-1000,-126,0
570,570,0,146,-951,-126,1
571,571,0,146,-809,154,0
572,572,0,-147,-588,154,1
573,573,0,-147,-309,-126,0
574,574,0,90,0,-126,1
575,575,0,90,309,47,0
576,576,0,-1,588,47,1
577,577,0,-1,809,47,0
578,578,0,-91,951,47,1
579,579,0,-91,1000,-126,0
580,580,0,146,951,-126,1
581,581,0,146,809,154,0
582,582,0,-147,588,154,1
583,583,0,-147,309,-126,0
584,584,0,90,0,-126,1
585,585,0,90,-309,47,0
586,586,0,-1,-588,47,1
587,587,0,-1,-809,47,0
588,588,0,-91,-951,47,1
589,589,0,-91,-1000,-126,0
590,590,0,146,-951,-126,1
591,591,0,146,-809,154,0
592,592,0,-147,-588,154,1
593,593,0,-147,-309,-126,0
594,594,0,90,0,-126,1
595,595,0,90,309,47,0
596,596,0,-1,588,47,1
597,597,0,-1,809,47,0
598,598,0,-91,951,47,1
599,599,0,-91,1000,-126,0
600,600,0,146,951,-126,1
601,601,0,146,809,154,0
602,602,0,-147,588,154,1
603,603,0,-147,309,-126,0
604,604,0,90,0,-126,1
605,605,0,90,-309,47,0
606,606,0,-1,-588,47,1
607,607,0,-1,-809,47,0
608,608,0,-91,-951,47,1
609,609,0,-91,-1000,-126,0
610,610,0,146,-951,-126,1
611,611,0,146,-809,154,0
612,612,0,-147,-588,154,1
613,613,0,-147,-309,-126,0
614,614,0,90,0,-126,1
615,615,0,90,309,47,0
616,616,0,-1,588,47,1
617,617,0,-1,809,47,0
618,618,0,-91,951,47,1
619,619,0,-91,1000,-126,0
620,620,0,146,951,-126,1
621,621,0,146,809,154,0
622,622,0,-147,588,154,1
623,623,0,-147,309,-126,0
624,624,0,90,0,-126,1
625,625,0,90,-309,47,0
626,626,0,-1,-588,47,1
627,627,0,-1,-809,47,0
628,628,0,-91,-951,47,1
629,629,0,-91,-1000,-126,0
630,630,0,146,-951,-126,1
631,631,0,146,-809,154,0
632,632,0,-147,-588,154,1
633,633,0,-147,-309,-126,0
634,634,0,90,0,-126,1
635,635,0,90,309,47,0
636,636,0,-1,588,47,1
637,637,0,-1,809,47,0
638,638,0,-91,951,47,1
639,639,0,-91,1000,-126,0
640,640,0,146,951,-126,1
641,641,0,146,809,154,0
642,642,0,-147,588,154,1
643,643,0,-147,309,-126,0
644,644,0,90,0,-126,1
645,645,0,90,-309,47,0
646,646,0,-1,-588,47,1
647,647,0,-1,-809,47,0
648,648,0,-91,-951,47,1
649,649,0,-91,-1000,-126,0
650,650,0,146,-951,-126,1
651,651,0,146,-809,154,0
652,652,0,-147,-588,154,1
653,653,0,-147,-309,-126,0
654,654,0,90,0,-126,1
655,655,0,90,309,47,0
656,656,0,-1,588,47,1
657,657,0,-1,809,47,0
658,658,0,-91,951,47,1
659,659,0,-91,1000,-126,0
660,660,0,146,951,-126,1
661,661,0,146,809,154,0
662,662,0,-147,588,154,1
663,663,0,-147,309,-126,0
664,664,0,90,0,-126,1
665,665,0,90,-309,47,0
666,666,0,-1,-588,47,1
667,667,0,-1,-809,47,0
668,668,0,-91,-951,47,1
669,669,0,-91,-1000,-126,0
670,670,0,146,-951,-126,1
671,671,0,146,-809,154,0
672,672,0,-147,-588,154,1
673,673,0,-147,-309,-126,0
674,674,0,90,0,-126,1
675,675,0,90,309,47,0
676,676,0,-1,588,47,1
677,677,0,-1,809,47,0
678,678,0,-91,951,47,1
679,679,0,-91,1000,-126,0
680,680,0,146,951,-126,1
681,681,0,146,809,154,0
682,682,0,-147,588,154,1
683,683,0,-147,309,-126,0
684,684,0,90,0,-126,1
685,685,0,90,-309,47,0
686,686,0,-1,-588,47,1
687,687,0,-1,-809,47,0
688,688,0,-91,-951,47,1
689,689,0,-91,-1000,-126,0
690,690,0,146,-951,-126,1
691,691,0,146,-809,154,0
692,692,0,-147,-588,154,1
693,693,0,-147,-309,-126,0
694,694,0,90,0,-126,1
695,695,0,90,309,47,0
696,696,0,-1,588,47,1
697,697,0,-1,809,47,0
698,698,0,-91,951,47,1
699,699,0,-91,1000,-126,0
700,700,0,146,951,-126,1
701,701,0,146,809,154,0
702,702,0,-147,588,154,1
703,703,0,-147,309,-126,0
704,704,0,90,0,-126,1
705,705,0,90,-309,47,0
706,706,0,-1,-588,47,1
707,707,0,-1,-809,47,0
708,708,0,-91,-951,47,1
709,709,0,-91,-1000,-126,0
710,710,0,146,-951,-126,1
711,711,0,146,-809,154,0
712,712,0,-147,-588,154,1
713,713,0,-147,-309,-126,0
714,714,0,90,0,-126,1
715,715,0,90,309,47,0
716,716,0,-1,588,47,1
717,717,0,-1,809,47,0
718,718,0,-91,951,47,1
719,719,0,-91,1000,-126,0
720,720,0,146,951,-126,1
721,721,0,146,809,154,0
722,722,0,-147,588,154,1
723,723,0,-147,309,-126,0
724,724,0,90,0,-126,1
725,725,0,90,-309,47,0
726,726,0,-1,-588,47,1
727,727,0,-1,-809,47,0
728,728,0,-91,-951,47,1
729,729,0,-91,-1000,-126,0
730,730,0,146,-951,-126,1
731,731,0,146,-809,154,0
732,732,0,-147,-588,154,1
733,733,0,-147,-309,-126,0
734,734,0,90,0,-126,1
735,735,0,90,309,47,0
736,736,0,-1,588,47,1
737,737,0,-1,809,47,0
738,738,0,-91,951,47,1
739,739,0,-91,1000,-126,0
740,740,0,146,951,-126,1
741,741,0,146,809,154,0
742,742,0,-147,588,154,1
743,743,0,-147,309,-126,0
744,744,0,90,0,-126,1
745,745,0,90,-309,47,0
746,746,0,-1,-588,47,1
747,747,0,-1,-809,47,0
748,748,0,-91,-951,47,1
749,749,0,-91,-1000,-126,0
750,750,0,146,-951,-126,1
751,751,0,146,-809,154,0
752,752,0,-147,-588,154,1
753,753,0,-147,-309,-126,0
754,754,0,90,0,-126,1
755,755,0,90,309,47,0
756,756,0,-1,588,47,1
757,757,0,-1,809,47,0
758,758,0,-91,951,47,1
759,759,0,-91,1000,-126,0
760,760,0,146,951,-126,1
761,761,0,146,809,154,0
762,762,0,-147,588,154,1
763,763,0,-147,309,-126,0
764,764,0,90,0,-126,1
765,765,0,90,-309,47,0
766,766,0,-1,-588,47,1
767,767,0,-1,-809,47,0
768,768,0,-91,-951,47,1
769,769,0,-91,-1000,-126,0
770,770,0,146,-951,-126,1
771,771,0,146,-809,154,0
772,772,0,-147,-588,154,1
773,773,0,-147,-309,-126,0
774,774,0,90,0,-126,1
775,775,0,90,309,47,0
776,776,0,-1,588,47,1
777,777,0,-1,809,47,0
778,778,0,-91,951,47,1
779,779,0,-91,1000,-126,0
780,780,0,146,951,-126,1
781,781,0,146,809,154,0
782,782,0,-147,588,154,1
783,783,0,-147,309,-126,0
784,784,0,90,0,-126,1
785,785,0,90,-309,47,0
786,786,0,-1,-588,47,1
787,787,0,-1,-809,47,0
788,788,0,-91,-951,47,1
789,789,0,-91,-1000,-126,0
790,790,0,146,-951,-126,1
791,791,0,146,-809,154,0
792,792,0,-147,-588,154,1
793,793,0,-147,-309,-126,0
794,794,0,90,0,-126,1
795,795,0,90,309,47,0
796,796,0,-1,588,47,1
797,797,0,-1,809,47,0
798,798,0,-91,951,47,1
799,799,0,-91,1000,-126,0
800,800,0,146,951,-126,1
801,801,0,146,809,154,0
802,802,0,-147,588,154,1
803,803,0,-147,309,-126,0
804,804,0,90,0,-126,1
805,805,0,90,-309,47,0
806,806,0,-1,-588,47,1
807,807,0,-1,-809,47,0
808,808,0,-91,-951,47,1
809,809,0,-91,-1000,-126,0
810,810,0,146,-951,-126,1
811,811,0,146,-809,154,0
812,812,0,-147,-588,154,1
813,813,0,-147,-309,-126,0
814,814,0,90,0,-126,1
815,815,0,90,309,47,0
816,816,0,-1,588,47,1
817,817,0,-1,809,47,0
818,818,0,-91,951,47,1
819,819,0,-91,1000,-126,0
820,820,0,146,951,-126,1
821,821,0,146,809,154,0
822,822,0,-147,588,154,1
823,823,0,-147,309,-126,0
824,824,0,90,0,-126,1
825,825,0,90,-309,47,0
826,826,0,-1,-588,47,1
827,827,0,-1,-809,47,0
828,828,0,-91,-951,47,1
829,829,0,-91,-1000,-126,0
